T2ED0 9509:492.288   SEGGER J-Link V7.94e Log File
T2ED0 9509:492.345   DLL Compiled: Jan 15 2024 15:13:38
T2ED0 9509:492.354   Logging started @ 2024-10-15 10:54
T2ED0 9509:492.362   Process: C:\Programas-Practicas\Simuladores\Keil\UV4\UV4.exe
T2ED0 9509:492.370 - 36191.228ms
T2ED0 9509:492.383 JLINK_SetWarnOutHandler(...)
T2ED0 9509:492.391 - 0.008ms
T2ED0 9509:492.402 JLINK_OpenEx(...)
T2ED0 9509:495.546   Firmware: J-Link OB-nRF5340-NordicSemi compiled Dec  3 2021 15:46:49
T2ED0 9509:496.724   Firmware: J-Link OB-nRF5340-NordicSemi compiled Dec  3 2021 15:46:49
T2ED0 9509:527.687   Hardware: V1.00
T2ED0 9509:527.720   S/N: 1050234159
T2ED0 9509:527.733   OEM: SEGGER
T2ED0 9509:527.745   Feature(s): RDI, FlashBP, FlashDL, JFlash, GDB
T2ED0 9509:528.775   Bootloader: (Could not read)
T2ED0 9509:530.274   TELNET listener socket opened on port 19021
T2ED0 9509:539.358   WEBSRV WEBSRV_Init(): Starting webserver thread(s)
T2ED0 9509:539.562   WEBSRV Webserver running on local port 19080
T2ED0 9509:539.709   Looking for J-Link GUI Server exe at: C:\Programas-Practicas\Simuladores\Keil\ARM\Segger\JLinkGUIServer.exe
T2ED0 9509:539.783   Looking for J-Link GUI Server exe at: \JLinkGUIServer.exe
T2ED0 9509:840.722   Failed to connect to J-Link GUI Server.
T2ED0 9509:840.796 - 348.392ms returns "O.K."
T2ED0 9509:840.869 JLINK_GetEmuCaps()
T2ED0 9509:840.903 - 0.032ms returns 0xB8EA5A33
T2ED0 9509:840.952 JLINK_TIF_GetAvailable(...)
T2ED0 9509:841.448 - 0.493ms
T2ED0 9509:841.533 JLINK_SetErrorOutHandler(...)
T2ED0 9509:841.565 - 0.031ms
T2ED0 9509:841.635 JLINK_ExecCommand("ProjectFile = "C:\Users\guest\Downloads\blink_v2_lpc_resuelto\nrf\keil\JLinkSettings.ini"", ...). 
T2ED0 9509:848.522 - 6.884ms returns 0x00
T2ED0 9509:849.316 JLINK_ExecCommand("Device = nRF52840_xxAA", ...). 
T2ED0 9509:851.002   Device "NRF52840_XXAA" selected.
T2ED0 9509:851.774 - 2.393ms returns 0x00
T2ED0 9509:851.834 JLINK_ExecCommand("DisableConnectionTimeout", ...). 
T2ED0 9509:851.882 - 0.006ms returns 0x01
T2ED0 9509:851.932 JLINK_GetHardwareVersion()
T2ED0 9509:851.963 - 0.030ms returns 10000
T2ED0 9509:852.003 JLINK_GetDLLVersion()
T2ED0 9509:852.032 - 0.028ms returns 79405
T2ED0 9509:852.072 JLINK_GetOEMString(...)
T2ED0 9509:852.112 JLINK_GetFirmwareString(...)
T2ED0 9509:852.141 - 0.029ms
T2ED0 9509:852.243 JLINK_GetDLLVersion()
T2ED0 9509:852.274 - 0.030ms returns 79405
T2ED0 9509:852.314 JLINK_GetCompileDateTime()
T2ED0 9509:852.343 - 0.028ms
T2ED0 9509:852.402 JLINK_GetFirmwareString(...)
T2ED0 9509:852.432 - 0.030ms
T2ED0 9509:852.488 JLINK_GetHardwareVersion()
T2ED0 9509:852.518 - 0.029ms returns 10000
T2ED0 9509:852.574 JLINK_GetSN()
T2ED0 9509:852.606 - 0.030ms returns 1050234159
T2ED0 9509:852.671 JLINK_GetOEMString(...)
T2ED0 9509:852.758 JLINK_TIF_Select(JLINKARM_TIF_SWD)
T2ED0 9509:854.012 - 1.251ms returns 0x00
T2ED0 9509:854.092 JLINK_HasError()
T2ED0 9509:854.140 JLINK_SetSpeed(5000)
T2ED0 9509:854.472 - 0.330ms
T2ED0 9509:854.549 JLINK_GetId()
T2ED0 9509:854.989   InitTarget() start
T2ED0 9509:855.055    J-Link Script File: Executing InitTarget()
T2ED0 9509:858.602   InitTarget() end - Took 3.50ms
T2ED0 9509:859.728   Found SW-DP with ID 0x2BA01477
T2ED0 9509:863.002   DPIDR: 0x2BA01477
T2ED0 9509:863.079   CoreSight SoC-400 or earlier
T2ED0 9509:863.140   Scanning AP map to find all available APs
T2ED0 9509:864.751   AP[2]: Stopped AP scan as end of AP map has been reached
T2ED0 9509:864.829   AP[0]: AHB-AP (IDR: 0x24770011)
T2ED0 9509:864.889   AP[1]: JTAG-AP (IDR: 0x02880000)
T2ED0 9509:864.948   Iterating through AP map to find AHB-AP to use
T2ED0 9509:866.406   AP[0]: Core found
T2ED0 9509:866.483   AP[0]: AHB-AP ROM base: 0xE00FF000
T2ED0 9509:867.218   CPUID register: 0x410FC241. Implementer code: 0x41 (ARM)
T2ED0 9509:867.303   Found Cortex-M4 r0p1, Little endian.
T2ED0 9509:867.970   -- Max. mem block: 0x0003C628
T2ED0 9509:868.762   CPU_ReadMem(4 bytes @ 0xE000EDF0)
T2ED0 9509:869.383   CPU_WriteMem(4 bytes @ 0xE000EDF0)
T2ED0 9509:870.000   CPU_ReadMem(4 bytes @ 0xE0002000)
T2ED0 9509:870.777   FPUnit: 6 code (BP) slots and 2 literal slots
T2ED0 9509:870.838   CPU_ReadMem(4 bytes @ 0xE000EDFC)
T2ED0 9509:871.359   CPU_WriteMem(4 bytes @ 0xE000EDFC)
T2ED0 9509:872.008   CPU_ReadMem(4 bytes @ 0xE0001000)
T2ED0 9509:872.601   CPU_WriteMem(4 bytes @ 0xE0001000)
T2ED0 9509:873.202   CPU_ReadMem(4 bytes @ 0xE000ED88)
T2ED0 9509:873.799   CPU_WriteMem(4 bytes @ 0xE000ED88)
T2ED0 9509:874.402   CPU_ReadMem(4 bytes @ 0xE000ED88)
T2ED0 9509:874.981   CPU_WriteMem(4 bytes @ 0xE000ED88)
T2ED0 9509:875.639   CoreSight components:
T2ED0 9509:875.724   ROMTbl[0] @ E00FF000
T2ED0 9509:875.771   CPU_ReadMem(64 bytes @ 0xE00FF000)
T2ED0 9509:876.808   CPU_ReadMem(32 bytes @ 0xE000EFE0)
T2ED0 9509:877.683   [0][0]: E000E000 CID B105E00D PID 000BB00C SCS-M7
T2ED0 9509:877.744   CPU_ReadMem(32 bytes @ 0xE0001FE0)
T2ED0 9509:878.517   [0][1]: E0001000 CID B105E00D PID 003BB002 DWT
T2ED0 9509:878.586   CPU_ReadMem(32 bytes @ 0xE0002FE0)
T2ED0 9509:879.482   [0][2]: E0002000 CID B105E00D PID 002BB003 FPB
T2ED0 9509:879.550   CPU_ReadMem(32 bytes @ 0xE0000FE0)
T2ED0 9509:880.518   [0][3]: E0000000 CID B105E00D PID 003BB001 ITM
T2ED0 9509:880.587   CPU_ReadMem(32 bytes @ 0xE0040FE0)
T2ED0 9509:881.471   [0][4]: E0040000 CID B105900D PID 000BB9A1 TPIU
T2ED0 9509:881.540   CPU_ReadMem(32 bytes @ 0xE0041FE0)
T2ED0 9509:882.450   [0][5]: E0041000 CID B105900D PID 000BB925 ETM
T2ED0 9509:882.944 - 28.392ms returns 0x2BA01477
T2ED0 9509:883.021 JLINK_GetDLLVersion()
T2ED0 9509:883.052 - 0.030ms returns 79405
T2ED0 9509:883.104 JLINK_CORE_GetFound()
T2ED0 9509:883.135 - 0.029ms returns 0xE0000FF
T2ED0 9509:883.182 JLINK_GetDebugInfo(0x100 = JLINKARM_ROM_TABLE_ADDR_INDEX)
T2ED0 9509:883.214   Value=0xE00FF000
T2ED0 9509:883.257 - 0.075ms returns 0
T2ED0 9509:883.337 JLINK_GetDebugInfo(0x100 = JLINKARM_ROM_TABLE_ADDR_INDEX)
T2ED0 9509:883.368   Value=0xE00FF000
T2ED0 9509:883.414 - 0.077ms returns 0
T2ED0 9509:883.529 JLINK_GetDebugInfo(0x101 = JLINKARM_DEBUG_INFO_ETM_ADDR_INDEX)
T2ED0 9509:883.566   Value=0xE0041000
T2ED0 9509:883.609 - 0.080ms returns 0
T2ED0 9509:883.663 JLINK_ReadMemEx(0xE0041FD0, 0x20 Bytes, Flags = 0x02000004)
T2ED0 9509:883.712   CPU_ReadMem(32 bytes @ 0xE0041FD0)
T2ED0 9509:884.555   Data:  04 00 00 00 00 00 00 00 00 00 00 00 00 00 00 00 ...
T2ED0 9509:884.621 - 0.957ms returns 32 (0x20)
T2ED0 9509:884.678 JLINK_GetDebugInfo(0x102 = JLINKARM_DEBUG_INFO_MTB_ADDR_INDEX)
T2ED0 9509:884.709   Value=0x00000000
T2ED0 9509:884.752 - 0.073ms returns 0
T2ED0 9509:884.796 JLINK_GetDebugInfo(0x103 = JLINKARM_DEBUG_INFO_TPIU_ADDR_INDEX)
T2ED0 9509:884.825   Value=0xE0040000
T2ED0 9509:884.866 - 0.070ms returns 0
T2ED0 9509:884.909 JLINK_GetDebugInfo(0x104 = JLINKARM_DEBUG_INFO_ITM_ADDR_INDEX)
T2ED0 9509:884.938   Value=0xE0000000
T2ED0 9509:884.979 - 0.070ms returns 0
T2ED0 9509:885.022 JLINK_GetDebugInfo(0x105 = JLINKARM_DEBUG_INFO_DWT_ADDR_INDEX)
T2ED0 9509:885.051   Value=0xE0001000
T2ED0 9509:885.093 - 0.070ms returns 0
T2ED0 9509:885.135 JLINK_GetDebugInfo(0x106 = JLINKARM_DEBUG_INFO_FPB_ADDR_INDEX)
T2ED0 9509:885.164   Value=0xE0002000
T2ED0 9509:885.205 - 0.070ms returns 0
T2ED0 9509:885.248 JLINK_GetDebugInfo(0x107 = JLINKARM_DEBUG_INFO_NVIC_ADDR_INDEX)
T2ED0 9509:885.277   Value=0xE000E000
T2ED0 9509:885.318 - 0.070ms returns 0
T2ED0 9509:885.360 JLINK_GetDebugInfo(0x10C = JLINKARM_DEBUG_INFO_DBG_ADDR_INDEX)
T2ED0 9509:885.389   Value=0xE000EDF0
T2ED0 9509:885.431 - 0.070ms returns 0
T2ED0 9509:885.474 JLINK_GetDebugInfo(0x01 = Unknown)
T2ED0 9509:885.510   Value=0x00000001
T2ED0 9509:885.552 - 0.079ms returns 0
T2ED0 9509:885.603 JLINK_ReadMemU32(0xE000ED00, 0x1 Items)
T2ED0 9509:885.646   CPU_ReadMem(4 bytes @ 0xE000ED00)
T2ED0 9509:886.221   Data:  41 C2 0F 41
T2ED0 9509:886.286   Debug reg: CPUID
T2ED0 9509:886.330 - 0.726ms returns 1 (0x1)
T2ED0 9509:886.387 JLINK_GetDebugInfo(0x10F = JLINKARM_DEBUG_INFO_HAS_CORTEX_M_SECURITY_EXT_INDEX)
T2ED0 9509:886.418   Value=0x00000000
T2ED0 9509:886.460 - 0.074ms returns 0
T2ED0 9509:886.532 JLINK_HasError()
T2ED0 9509:886.736 JLINK_SetResetType(JLINKARM_CM3_RESET_TYPE_NORMAL)
T2ED0 9509:886.789 - 0.053ms returns JLINKARM_CM3_RESET_TYPE_NORMAL
T2ED0 9509:886.835 JLINK_Reset()
T2ED0 9509:886.880   CPU is running
T2ED0 9509:886.928   CPU_WriteMem(4 bytes @ 0xE000EDF0)
T2ED0 9509:887.530   CPU is running
T2ED0 9509:887.600   CPU_WriteMem(4 bytes @ 0xE000EDFC)
T2ED0 9509:888.221   Reset: Halt core after reset via DEMCR.VC_CORERESET.
T2ED0 9509:888.949   Reset: Reset device via AIRCR.SYSRESETREQ.
T2ED0 9509:889.017   CPU is running
T2ED0 9509:889.066   CPU_WriteMem(4 bytes @ 0xE000ED0C)
T2ED0 9509:943.348   CPU_ReadMem(4 bytes @ 0xE000EDF0)
T2ED0 9509:943.986   CPU_ReadMem(4 bytes @ 0xE000EDF0)
T2ED0 9509:948.456   CPU_WriteMem(4 bytes @ 0xE000EDFC)
T2ED0 9509:954.782   CPU_ReadMem(4 bytes @ 0xE000EDF0)
T2ED0 9509:959.002   CPU_WriteMem(4 bytes @ 0xE0002000)
T2ED0 9509:959.541   CPU_ReadMem(4 bytes @ 0xE000EDFC)
T2ED0 9509:960.033   CPU_ReadMem(4 bytes @ 0xE0001000)
T2ED0 9509:960.540 - 73.703ms
T2ED0 9509:960.621 JLINK_HasError()
T2ED0 9509:960.784 JLINK_ReadReg(R15 (PC))
T2ED0 9509:960.820 - 0.036ms returns 0x00000214
T2ED0 9509:960.843 JLINK_ReadReg(XPSR)
T2ED0 9509:960.861 - 0.017ms returns 0x01000000
T2ED0 9509:960.888 JLINK_Halt()
T2ED0 9509:960.905 - 0.016ms returns 0x00
T2ED0 9509:960.927 JLINK_ReadMemU32(0xE000EDF0, 0x1 Items)
T2ED0 9509:960.952   CPU_ReadMem(4 bytes @ 0xE000EDF0)
T2ED0 9509:961.409   Data:  03 00 03 00
T2ED0 9509:961.445   Debug reg: DHCSR
T2ED0 9509:961.468 - 0.541ms returns 1 (0x1)
T2ED0 9509:961.499 JLINK_WriteU32_64(0xE000EDF0, 0xA05F0003)
T2ED0 9509:961.515   Debug reg: DHCSR
T2ED0 9509:962.014   CPU_WriteMem(4 bytes @ 0xE000EDF0)
T2ED0 9509:962.504 - 1.005ms returns 0 (0x00000000)
T2ED0 9509:962.534 JLINK_WriteU32_64(0xE000EDFC, 0x01000000)
T2ED0 9509:962.548   Debug reg: DEMCR
T2ED0 9509:962.574   CPU_WriteMem(4 bytes @ 0xE000EDFC)
T2ED0 9509:963.085 - 0.549ms returns 0 (0x00000000)
T2ED0 9509:963.166 JLINK_GetHWStatus(...)
T2ED0 9509:963.446 - 0.279ms returns 0
T2ED0 9509:963.511 JLINK_GetNumBPUnits(Type = 0xFFFFFF00)
T2ED0 9509:963.527 - 0.015ms returns 0x06
T2ED0 9509:963.544 JLINK_GetNumBPUnits(Type = 0xF0)
T2ED0 9509:963.557 - 0.012ms returns 0x2000
T2ED0 9509:963.574 JLINK_GetNumWPUnits()
T2ED0 9509:963.587 - 0.012ms returns 4
T2ED0 9509:963.625 JLINK_GetSpeed()
T2ED0 9509:963.638 - 0.013ms returns 2000
T2ED0 9509:963.668 JLINK_ReadMemU32(0xE000E004, 0x1 Items)
T2ED0 9509:963.687   CPU_ReadMem(4 bytes @ 0xE000E004)
T2ED0 9509:964.119   Data:  01 00 00 00
T2ED0 9509:964.148 - 0.479ms returns 1 (0x1)
T2ED0 9509:964.169 JLINK_ReadMemU32(0xE000E004, 0x1 Items)
T2ED0 9509:964.188   CPU_ReadMem(4 bytes @ 0xE000E004)
T2ED0 9509:964.585   Data:  01 00 00 00
T2ED0 9509:964.614 - 0.445ms returns 1 (0x1)
T2ED0 9509:964.639 JLINK_WriteMemEx(0xE0001000, 0x0000001C Bytes, Flags = 0x02000004)
T2ED0 9509:964.652   Data:  01 00 00 00 00 00 00 00 00 00 00 00 00 00 00 00 ...
T2ED0 9509:964.683   CPU_WriteMem(28 bytes @ 0xE0001000)
T2ED0 9509:965.239 - 0.600ms returns 0x1C
T2ED0 9509:965.280 JLINK_HasError()
T2ED0 9509:965.299 JLINK_ReadReg(R15 (PC))
T2ED0 9509:965.314 - 0.015ms returns 0x00000214
T2ED0 9509:965.331 JLINK_ReadReg(XPSR)
T2ED0 9509:965.344 - 0.012ms returns 0x01000000
T2ED0 9509:969.701 JLINK_ReadMemEx(0xE0001004, 0x4 Bytes, Flags = 0x02000000)
T2ED0 9509:969.739   Data:  00 00 00 00
T2ED0 9509:969.751   Debug reg: DWT_CYCCNT
T2ED0 9509:969.762 - 0.061ms returns 4 (0x4)
T2ED0 9510:040.929 JLINK_HasError()
T2ED0 9510:040.961 JLINK_SetResetType(JLINKARM_CM3_RESET_TYPE_NORMAL)
T2ED0 9510:040.970 - 0.009ms returns JLINKARM_CM3_RESET_TYPE_NORMAL
T2ED0 9510:040.980 JLINK_Reset()
T2ED0 9510:040.997   CPU_WriteMem(4 bytes @ 0xE000EDF0)
T2ED0 9510:041.482   CPU_WriteMem(4 bytes @ 0xE000EDFC)
T2ED0 9510:041.940   Reset: Halt core after reset via DEMCR.VC_CORERESET.
T2ED0 9510:042.536   Reset: Reset device via AIRCR.SYSRESETREQ.
T2ED0 9510:042.556   CPU_WriteMem(4 bytes @ 0xE000ED0C)
T2ED0 9510:096.781   CPU_ReadMem(4 bytes @ 0xE000EDF0)
T2ED0 9510:097.492   CPU_ReadMem(4 bytes @ 0xE000EDF0)
T2ED0 9510:098.103   CPU_WriteMem(4 bytes @ 0xE000EDFC)
T2ED0 9510:104.463   CPU_ReadMem(4 bytes @ 0xE000EDF0)
T2ED0 9510:109.402   CPU_WriteMem(4 bytes @ 0xE0002000)
T2ED0 9510:110.105   CPU_ReadMem(4 bytes @ 0xE000EDFC)
T2ED0 9510:110.802   CPU_ReadMem(4 bytes @ 0xE0001000)
T2ED0 9510:111.510 - 70.527ms
T2ED0 9510:111.817 JLINK_HasError()
T2ED0 9510:111.890 JLINK_ReadReg(R15 (PC))
T2ED0 9510:111.930 - 0.039ms returns 0x00000214
T2ED0 9510:111.970 JLINK_ReadReg(XPSR)
T2ED0 9510:112.002 - 0.030ms returns 0x01000000
T2ED0 9510:113.044 JLINK_ReadMemEx(0x00000200, 0x3C Bytes, Flags = 0x02000000)
T2ED0 9510:113.103   CPU_ReadMem(64 bytes @ 0x00000200)
T2ED0 9510:114.190    -- Updating C cache (64 bytes @ 0x00000200)
T2ED0 9510:114.273    -- Read from C cache (60 bytes @ 0x00000200)
T2ED0 9510:114.322   Data:  DF F8 0C D0 00 F0 68 F8 00 48 00 47 1D 07 00 00 ...
T2ED0 9510:114.366 - 1.323ms returns 60 (0x3C)
T2ED0 9510:274.515 JLINK_ReadMemEx(0x50000504, 0x20 Bytes, Flags = 0x02000004)
T2ED0 9510:274.554   CPU_ReadMem(32 bytes @ 0x50000504)
T2ED0 9510:275.138   Data:  00 00 00 00 00 00 00 00 00 00 00 00 00 00 04 00 ...
T2ED0 9510:275.158 - 0.643ms returns 32 (0x20)
T2ED0 9510:275.258 JLINK_ReadMemEx(0x50000524, 0x4 Bytes, Flags = 0x02000004)
T2ED0 9510:275.271   CPU_ReadMem(4 bytes @ 0x50000524)
T2ED0 9510:275.648   Data:  00 00 00 00
T2ED0 9510:275.664 - 0.406ms returns 4 (0x4)
T2ED0 9510:275.678 JLINK_ReadMemEx(0x50000700, 0x7C Bytes, Flags = 0x02000004)
T2ED0 9510:275.689   CPU_ReadMem(124 bytes @ 0x50000700)
T2ED0 9510:277.034   Data:  02 00 00 00 02 00 00 00 02 00 00 00 02 00 00 00 ...
T2ED0 9510:277.049 - 1.371ms returns 124 (0x7C)
T2ED0 9510:277.063 JLINK_ReadMemEx(0x5000077C, 0x4 Bytes, Flags = 0x02000004)
T2ED0 9510:277.074   CPU_ReadMem(4 bytes @ 0x5000077C)
T2ED0 9510:277.460   Data:  02 00 00 00
T2ED0 9510:277.490 - 0.427ms returns 4 (0x4)
T2ED0 9510:322.547 JLINK_ReadMemEx(0x40008140, 0x14 Bytes, Flags = 0x02000004)
T2ED0 9510:322.584   CPU_ReadMem(20 bytes @ 0x40008140)
T2ED0 9510:323.107   Data:  00 00 00 00 00 00 00 00 00 00 00 00 00 00 00 00 ...
T2ED0 9510:323.126 - 0.579ms returns 20 (0x14)
T2ED0 9510:323.222 JLINK_ReadMemEx(0x40008154, 0x4 Bytes, Flags = 0x02000004)
T2ED0 9510:323.234   CPU_ReadMem(4 bytes @ 0x40008154)
T2ED0 9510:323.577   Data:  00 00 00 00
T2ED0 9510:323.592 - 0.370ms returns 4 (0x4)
T2ED0 9510:323.605 JLINK_ReadMemEx(0x40008200, 0x4 Bytes, Flags = 0x02000004)
T2ED0 9510:323.615   CPU_ReadMem(4 bytes @ 0x40008200)
T2ED0 9510:323.989   Data:  00 00 00 00
T2ED0 9510:324.004 - 0.398ms returns 4 (0x4)
T2ED0 9510:324.017 JLINK_ReadMemEx(0x40008304, 0x4 Bytes, Flags = 0x02000004)
T2ED0 9510:324.027   CPU_ReadMem(4 bytes @ 0x40008304)
T2ED0 9510:324.429   Data:  00 00 00 00
T2ED0 9510:324.444 - 0.426ms returns 4 (0x4)
T2ED0 9510:324.456 JLINK_ReadMemEx(0x40008308, 0x4 Bytes, Flags = 0x02000004)
T2ED0 9510:324.467   CPU_ReadMem(4 bytes @ 0x40008308)
T2ED0 9510:324.850   Data:  00 00 00 00
T2ED0 9510:324.878 - 0.421ms returns 4 (0x4)
T2ED0 9510:324.891 JLINK_ReadMemEx(0x40008504, 0x4 Bytes, Flags = 0x02000004)
T2ED0 9510:324.901   CPU_ReadMem(4 bytes @ 0x40008504)
T2ED0 9510:325.231   Data:  00 00 00 00
T2ED0 9510:325.246 - 0.355ms returns 4 (0x4)
T2ED0 9510:325.259 JLINK_ReadMemEx(0x40008508, 0x4 Bytes, Flags = 0x02000004)
T2ED0 9510:325.270   CPU_ReadMem(4 bytes @ 0x40008508)
T2ED0 9510:325.583   Data:  00 00 00 00
T2ED0 9510:325.598 - 0.339ms returns 4 (0x4)
T2ED0 9510:325.612 JLINK_ReadMemEx(0x40008510, 0x4 Bytes, Flags = 0x02000004)
T2ED0 9510:325.622   CPU_ReadMem(4 bytes @ 0x40008510)
T2ED0 9510:325.935   Data:  04 00 00 00
T2ED0 9510:325.950 - 0.338ms returns 4 (0x4)
T2ED0 9510:325.963 JLINK_ReadMemEx(0x40008540, 0x14 Bytes, Flags = 0x02000004)
T2ED0 9510:325.974   CPU_ReadMem(20 bytes @ 0x40008540)
T2ED0 9510:326.460   Data:  00 00 00 00 00 00 00 00 00 00 00 00 00 00 00 00 ...
T2ED0 9510:326.508 - 0.544ms returns 20 (0x14)
T2ED0 9510:326.575 JLINK_ReadMemEx(0x40008554, 0x4 Bytes, Flags = 0x02000004)
T2ED0 9510:326.588   CPU_ReadMem(4 bytes @ 0x40008554)
T2ED0 9510:326.902   Data:  00 00 00 00
T2ED0 9510:326.917 - 0.342ms returns 4 (0x4)
T2ED0 9512:035.419 JLINK_HasError()
T2ED0 9512:035.475 JLINK_ReadReg(R0)
T2ED0 9512:035.911 - 0.435ms returns 0x00000000
T2ED0 9512:035.930 JLINK_ReadReg(R1)
T2ED0 9512:035.939 - 0.008ms returns 0x00000000
T2ED0 9512:035.949 JLINK_ReadReg(R2)
T2ED0 9512:035.957 - 0.007ms returns 0x00000000
T2ED0 9512:035.967 JLINK_ReadReg(R3)
T2ED0 9512:035.975 - 0.007ms returns 0x00000000
T2ED0 9512:035.984 JLINK_ReadReg(R4)
T2ED0 9512:035.992 - 0.007ms returns 0x00000000
T2ED0 9512:036.002 JLINK_ReadReg(R5)
T2ED0 9512:036.010 - 0.007ms returns 0x00000000
T2ED0 9512:036.019 JLINK_ReadReg(R6)
T2ED0 9512:036.027 - 0.007ms returns 0x00000000
T2ED0 9512:036.037 JLINK_ReadReg(R7)
T2ED0 9512:036.044 - 0.007ms returns 0x00000000
T2ED0 9512:036.054 JLINK_ReadReg(R8)
T2ED0 9512:036.062 - 0.007ms returns 0x00000000
T2ED0 9512:036.071 JLINK_ReadReg(R9)
T2ED0 9512:036.079 - 0.007ms returns 0x00000000
T2ED0 9512:036.089 JLINK_ReadReg(R10)
T2ED0 9512:036.097 - 0.007ms returns 0x00000000
T2ED0 9512:036.106 JLINK_ReadReg(R11)
T2ED0 9512:036.114 - 0.007ms returns 0x00000000
T2ED0 9512:036.124 JLINK_ReadReg(R12)
T2ED0 9512:036.131 - 0.007ms returns 0x00000000
T2ED0 9512:036.141 JLINK_ReadReg(R13 (SP))
T2ED0 9512:036.149 - 0.007ms returns 0x20004010
T2ED0 9512:036.159 JLINK_ReadReg(R14)
T2ED0 9512:036.166 - 0.007ms returns 0xFFFFFFFF
T2ED0 9512:036.176 JLINK_ReadReg(R15 (PC))
T2ED0 9512:036.184 - 0.007ms returns 0x00000214
T2ED0 9512:036.194 JLINK_ReadReg(XPSR)
T2ED0 9512:036.202 - 0.007ms returns 0x01000000
T2ED0 9512:036.211 JLINK_ReadReg(MSP)
T2ED0 9512:036.219 - 0.007ms returns 0x20004010
T2ED0 9512:036.229 JLINK_ReadReg(PSP)
T2ED0 9512:036.237 - 0.007ms returns 0x00000000
T2ED0 9512:036.246 JLINK_ReadReg(CFBP)
T2ED0 9512:036.254 - 0.007ms returns 0x00000000
T2ED0 9512:036.264 JLINK_ReadReg(FPSCR)
T2ED0 9512:041.825 - 5.559ms returns 0x00000000
T2ED0 9512:041.877 JLINK_ReadReg(FPS0)
T2ED0 9512:041.903 - 0.026ms returns 0x00000000
T2ED0 9512:041.937 JLINK_ReadReg(FPS1)
T2ED0 9512:041.960 - 0.022ms returns 0x00000000
T2ED0 9512:041.992 JLINK_ReadReg(FPS2)
T2ED0 9512:042.015 - 0.022ms returns 0x00000000
T2ED0 9512:042.054 JLINK_ReadReg(FPS3)
T2ED0 9512:042.071 - 0.016ms returns 0x00000000
T2ED0 9512:042.095 JLINK_ReadReg(FPS4)
T2ED0 9512:042.112 - 0.016ms returns 0x00000000
T2ED0 9512:042.133 JLINK_ReadReg(FPS5)
T2ED0 9512:042.150 - 0.016ms returns 0x00000000
T2ED0 9512:042.174 JLINK_ReadReg(FPS6)
T2ED0 9512:042.191 - 0.016ms returns 0x00000000
T2ED0 9512:042.212 JLINK_ReadReg(FPS7)
T2ED0 9512:042.228 - 0.016ms returns 0x00000000
T2ED0 9512:042.252 JLINK_ReadReg(FPS8)
T2ED0 9512:042.269 - 0.016ms returns 0x00000000
T2ED0 9512:042.349 JLINK_ReadReg(FPS9)
T2ED0 9512:042.377 - 0.027ms returns 0x00000000
T2ED0 9512:042.399 JLINK_ReadReg(FPS10)
T2ED0 9512:042.416 - 0.016ms returns 0x00000000
T2ED0 9512:042.437 JLINK_ReadReg(FPS11)
T2ED0 9512:042.454 - 0.016ms returns 0x00000000
T2ED0 9512:042.475 JLINK_ReadReg(FPS12)
T2ED0 9512:042.492 - 0.016ms returns 0x00000000
T2ED0 9512:042.513 JLINK_ReadReg(FPS13)
T2ED0 9512:042.530 - 0.016ms returns 0x00000000
T2ED0 9512:042.551 JLINK_ReadReg(FPS14)
T2ED0 9512:042.567 - 0.016ms returns 0x00000000
T2ED0 9512:042.588 JLINK_ReadReg(FPS15)
T2ED0 9512:042.605 - 0.016ms returns 0x00000000
T2ED0 9512:042.626 JLINK_ReadReg(FPS16)
T2ED0 9512:042.643 - 0.016ms returns 0x00000000
T2ED0 9512:042.664 JLINK_ReadReg(FPS17)
T2ED0 9512:042.681 - 0.016ms returns 0x00000000
T2ED0 9512:042.701 JLINK_ReadReg(FPS18)
T2ED0 9512:042.718 - 0.016ms returns 0x00000000
T2ED0 9512:042.739 JLINK_ReadReg(FPS19)
T2ED0 9512:042.756 - 0.016ms returns 0x00000000
T2ED0 9512:042.781 JLINK_ReadReg(FPS20)
T2ED0 9512:042.798 - 0.016ms returns 0x00000000
T2ED0 9512:042.819 JLINK_ReadReg(FPS21)
T2ED0 9512:042.836 - 0.016ms returns 0x00000000
T2ED0 9512:042.862 JLINK_ReadReg(FPS22)
T2ED0 9512:042.883 - 0.020ms returns 0x00000000
T2ED0 9512:042.904 JLINK_ReadReg(FPS23)
T2ED0 9512:042.921 - 0.016ms returns 0x00000000
T2ED0 9512:042.942 JLINK_ReadReg(FPS24)
T2ED0 9512:042.959 - 0.016ms returns 0x00000000
T2ED0 9512:042.980 JLINK_ReadReg(FPS25)
T2ED0 9512:042.997 - 0.016ms returns 0x00000000
T2ED0 9512:043.018 JLINK_ReadReg(FPS26)
T2ED0 9512:043.034 - 0.016ms returns 0x00000000
T2ED0 9512:043.055 JLINK_ReadReg(FPS27)
T2ED0 9512:043.072 - 0.016ms returns 0x00000000
T2ED0 9512:043.093 JLINK_ReadReg(FPS28)
T2ED0 9512:043.110 - 0.016ms returns 0x00000000
T2ED0 9512:043.131 JLINK_ReadReg(FPS29)
T2ED0 9512:043.147 - 0.016ms returns 0x00000000
T2ED0 9512:043.168 JLINK_ReadReg(FPS30)
T2ED0 9512:043.185 - 0.016ms returns 0x00000000
T2ED0 9512:043.206 JLINK_ReadReg(FPS31)
T2ED0 9512:043.223 - 0.016ms returns 0x00000000
T084C 9512:087.512 JLINK_ReadMemEx(0x00000214, 0x2 Bytes, Flags = 0x02000000)
T084C 9512:087.563    -- Read from C cache (2 bytes @ 0x00000214)
T084C 9512:087.576   Data:  06 48
T084C 9512:087.588 - 0.077ms returns 2 (0x2)
T084C 9512:087.600 JLINK_HasError()
T084C 9512:087.618 JLINK_SetBPEx(Addr = 0x0000071C, Type = 0xFFFFFFF2)
T084C 9512:087.629 - 0.011ms returns 0x00000001
T084C 9512:087.640 JLINK_HasError()
T084C 9512:087.650 JLINK_SetBPEx(Addr = 0x0000058A, Type = 0xFFFFFFF2)
T084C 9512:087.659 - 0.008ms returns 0x00000002
T084C 9512:087.669 JLINK_HasError()
T084C 9512:087.679 JLINK_HasError()
T084C 9512:087.691 JLINK_Go()
T084C 9512:087.706   CPU_WriteMem(4 bytes @ 0xE0002000)
T084C 9512:088.161   CPU_WriteMem(4 bytes @ 0xE0002000)
T084C 9512:088.598   CPU_ReadMem(4 bytes @ 0xE0001000)
T084C 9512:088.997   CPU_WriteMem(4 bytes @ 0xE0002008)
T084C 9512:089.035   CPU_WriteMem(4 bytes @ 0xE000200C)
T084C 9512:089.073   CPU_WriteMem(4 bytes @ 0xE0002010)
T084C 9512:089.084   CPU_WriteMem(4 bytes @ 0xE0002014)
T084C 9512:089.095   CPU_WriteMem(4 bytes @ 0xE0002018)
T084C 9512:089.107   CPU_WriteMem(4 bytes @ 0xE000201C)
T084C 9512:090.506   CPU_WriteMem(4 bytes @ 0xE0001004)
T084C 9512:091.874   Memory map 'after startup completion point' is active
T084C 9512:091.909 - 4.217ms
T084C 9512:192.304 JLINK_HasError()
T084C 9512:192.369 JLINK_IsHalted()
T084C 9512:195.808 - 3.438ms returns TRUE
T084C 9512:195.829 JLINK_HasError()
T084C 9512:195.840 JLINK_Halt()
T084C 9512:195.849 - 0.008ms returns 0x00
T084C 9512:195.859 JLINK_IsHalted()
T084C 9512:195.867 - 0.007ms returns TRUE
T084C 9512:195.877 JLINK_IsHalted()
T084C 9512:195.885 - 0.007ms returns TRUE
T084C 9512:195.895 JLINK_IsHalted()
T084C 9512:195.902 - 0.007ms returns TRUE
T084C 9512:195.913 JLINK_HasError()
T084C 9512:195.923 JLINK_ReadReg(R15 (PC))
T084C 9512:195.933 - 0.009ms returns 0x0000071C
T084C 9512:195.943 JLINK_ReadReg(XPSR)
T084C 9512:195.952 - 0.008ms returns 0x61000000
T084C 9512:195.964 JLINK_HasError()
T084C 9512:195.978 JLINK_ClrBPEx(BPHandle = 0x00000001)
T084C 9512:195.986 - 0.008ms returns 0x00
T084C 9512:195.996 JLINK_HasError()
T084C 9512:196.007 JLINK_ClrBPEx(BPHandle = 0x00000002)
T084C 9512:196.015 - 0.008ms returns 0x00
T084C 9512:196.025 JLINK_HasError()
T084C 9512:196.035 JLINK_HasError()
T084C 9512:196.045 JLINK_ReadMemU32(0xE000ED30, 0x1 Items)
T084C 9512:196.058   CPU_ReadMem(4 bytes @ 0xE000ED30)
T084C 9512:196.468   Data:  02 00 00 00
T084C 9512:196.486 - 0.441ms returns 1 (0x1)
T084C 9512:196.514 JLINK_ReadMemU32(0xE0001028, 0x1 Items)
T084C 9512:196.542   CPU_ReadMem(4 bytes @ 0xE0001028)
T084C 9512:196.917   Data:  00 00 00 00
T084C 9512:196.945   Debug reg: DWT_FUNC[0]
T084C 9512:196.956 - 0.442ms returns 1 (0x1)
T084C 9512:196.970 JLINK_ReadMemU32(0xE0001038, 0x1 Items)
T084C 9512:196.996   CPU_ReadMem(4 bytes @ 0xE0001038)
T084C 9512:197.329   Data:  00 02 00 00
T084C 9512:197.344   Debug reg: DWT_FUNC[1]
T084C 9512:197.368 - 0.398ms returns 1 (0x1)
T084C 9512:197.383 JLINK_ReadMemU32(0xE0001048, 0x1 Items)
T084C 9512:197.409   CPU_ReadMem(4 bytes @ 0xE0001048)
T084C 9512:197.729   Data:  00 00 00 00
T084C 9512:197.763   Debug reg: DWT_FUNC[2]
T084C 9512:197.774 - 0.390ms returns 1 (0x1)
T084C 9512:197.787 JLINK_ReadMemU32(0xE0001058, 0x1 Items)
T084C 9512:197.813   CPU_ReadMem(4 bytes @ 0xE0001058)
T084C 9512:198.229   Data:  00 00 00 00
T084C 9512:198.246   Debug reg: DWT_FUNC[3]
T084C 9512:198.257 - 0.469ms returns 1 (0x1)
T084C 9512:198.357 JLINK_HasError()
T084C 9512:198.369 JLINK_ReadReg(R0)
T084C 9512:198.378 - 0.009ms returns 0x0000071D
T084C 9512:198.389 JLINK_ReadReg(R1)
T084C 9512:198.409 - 0.020ms returns 0x20004010
T084C 9512:198.419 JLINK_ReadReg(R2)
T084C 9512:198.427 - 0.007ms returns 0x00000000
T084C 9512:198.436 JLINK_ReadReg(R3)
T084C 9512:198.444 - 0.007ms returns 0x0000057D
T084C 9512:198.454 JLINK_ReadReg(R4)
T084C 9512:198.461 - 0.007ms returns 0x000009A4
T084C 9512:198.471 JLINK_ReadReg(R5)
T084C 9512:198.479 - 0.007ms returns 0x000009A4
T084C 9512:198.488 JLINK_ReadReg(R6)
T084C 9512:198.496 - 0.007ms returns 0x00000000
T084C 9512:198.506 JLINK_ReadReg(R7)
T084C 9512:198.514 - 0.007ms returns 0x00000000
T084C 9512:198.523 JLINK_ReadReg(R8)
T084C 9512:198.531 - 0.007ms returns 0x00000000
T084C 9512:198.540 JLINK_ReadReg(R9)
T084C 9512:198.548 - 0.007ms returns 0x00000000
T084C 9512:198.558 JLINK_ReadReg(R10)
T084C 9512:198.566 - 0.007ms returns 0x00000000
T084C 9512:198.575 JLINK_ReadReg(R11)
T084C 9512:198.583 - 0.007ms returns 0x00000000
T084C 9512:198.592 JLINK_ReadReg(R12)
T084C 9512:198.600 - 0.007ms returns 0x00000000
T084C 9512:198.610 JLINK_ReadReg(R13 (SP))
T084C 9512:198.618 - 0.007ms returns 0x20004010
T084C 9512:198.628 JLINK_ReadReg(R14)
T084C 9512:198.635 - 0.007ms returns 0x000002F5
T084C 9512:198.645 JLINK_ReadReg(R15 (PC))
T084C 9512:198.653 - 0.007ms returns 0x0000071C
T084C 9512:198.663 JLINK_ReadReg(XPSR)
T084C 9512:198.670 - 0.007ms returns 0x61000000
T084C 9512:198.680 JLINK_ReadReg(MSP)
T084C 9512:198.688 - 0.007ms returns 0x20004010
T084C 9512:198.697 JLINK_ReadReg(PSP)
T084C 9512:198.705 - 0.007ms returns 0x00000000
T084C 9512:198.715 JLINK_ReadReg(CFBP)
T084C 9512:198.722 - 0.007ms returns 0x00000000
T084C 9512:198.732 JLINK_ReadReg(FPSCR)
T084C 9512:204.016 - 5.282ms returns 0x00000000
T084C 9512:204.034 JLINK_ReadReg(FPS0)
T084C 9512:204.043 - 0.009ms returns 0x00000000
T084C 9512:204.053 JLINK_ReadReg(FPS1)
T084C 9512:204.061 - 0.007ms returns 0x00000000
T084C 9512:204.070 JLINK_ReadReg(FPS2)
T084C 9512:204.078 - 0.007ms returns 0x00000000
T084C 9512:204.088 JLINK_ReadReg(FPS3)
T084C 9512:204.096 - 0.007ms returns 0x00000000
T084C 9512:204.105 JLINK_ReadReg(FPS4)
T084C 9512:204.113 - 0.007ms returns 0x00000000
T084C 9512:204.123 JLINK_ReadReg(FPS5)
T084C 9512:204.130 - 0.007ms returns 0x00000000
T084C 9512:204.140 JLINK_ReadReg(FPS6)
T084C 9512:204.148 - 0.007ms returns 0x00000000
T084C 9512:204.157 JLINK_ReadReg(FPS7)
T084C 9512:204.165 - 0.007ms returns 0x00000000
T084C 9512:204.175 JLINK_ReadReg(FPS8)
T084C 9512:204.183 - 0.007ms returns 0x00000000
T084C 9512:204.192 JLINK_ReadReg(FPS9)
T084C 9512:204.200 - 0.007ms returns 0x00000000
T084C 9512:204.210 JLINK_ReadReg(FPS10)
T084C 9512:204.217 - 0.007ms returns 0x00000000
T084C 9512:204.234 JLINK_ReadReg(FPS11)
T084C 9512:204.242 - 0.007ms returns 0x00000000
T084C 9512:204.252 JLINK_ReadReg(FPS12)
T084C 9512:204.260 - 0.007ms returns 0x00000000
T084C 9512:204.270 JLINK_ReadReg(FPS13)
T084C 9512:204.277 - 0.007ms returns 0x00000000
T084C 9512:204.287 JLINK_ReadReg(FPS14)
T084C 9512:204.295 - 0.007ms returns 0x00000000
T084C 9512:204.305 JLINK_ReadReg(FPS15)
T084C 9512:204.312 - 0.007ms returns 0x00000000
T084C 9512:204.322 JLINK_ReadReg(FPS16)
T084C 9512:204.330 - 0.007ms returns 0x00000000
T084C 9512:204.339 JLINK_ReadReg(FPS17)
T084C 9512:204.347 - 0.007ms returns 0x00000000
T084C 9512:204.357 JLINK_ReadReg(FPS18)
T084C 9512:204.364 - 0.007ms returns 0x00000000
T084C 9512:204.374 JLINK_ReadReg(FPS19)
T084C 9512:204.382 - 0.007ms returns 0x00000000
T084C 9512:204.391 JLINK_ReadReg(FPS20)
T084C 9512:204.399 - 0.007ms returns 0x00000000
T084C 9512:204.412 JLINK_ReadReg(FPS21)
T084C 9512:204.420 - 0.007ms returns 0x00000000
T084C 9512:204.429 JLINK_ReadReg(FPS22)
T084C 9512:204.437 - 0.007ms returns 0x00000000
T084C 9512:204.447 JLINK_ReadReg(FPS23)
T084C 9512:204.454 - 0.007ms returns 0x00000000
T084C 9512:204.464 JLINK_ReadReg(FPS24)
T084C 9512:204.472 - 0.007ms returns 0x00000000
T084C 9512:204.481 JLINK_ReadReg(FPS25)
T084C 9512:204.489 - 0.007ms returns 0x00000000
T084C 9512:204.499 JLINK_ReadReg(FPS26)
T084C 9512:204.507 - 0.007ms returns 0x00000000
T084C 9512:204.516 JLINK_ReadReg(FPS27)
T084C 9512:204.524 - 0.007ms returns 0x00000000
T084C 9512:204.534 JLINK_ReadReg(FPS28)
T084C 9512:204.541 - 0.007ms returns 0x00000000
T084C 9512:204.551 JLINK_ReadReg(FPS29)
T084C 9512:204.559 - 0.007ms returns 0x00000000
T084C 9512:204.569 JLINK_ReadReg(FPS30)
T084C 9512:204.576 - 0.007ms returns 0x00000000
T084C 9512:204.586 JLINK_ReadReg(FPS31)
T084C 9512:204.594 - 0.007ms returns 0x00000000
T2ED0 9512:208.838 JLINK_HasError()
T2ED0 9512:208.863 JLINK_ReadMemU32(0xE0001004, 0x1 Items)
T2ED0 9512:208.881   CPU_ReadMem(4 bytes @ 0xE0001004)
T2ED0 9512:209.310   Data:  DE 64 00 00
T2ED0 9512:209.328   Debug reg: DWT_CYCCNT
T2ED0 9512:209.340 - 0.476ms returns 1 (0x1)
T2ED0 9512:209.522 JLINK_ReadMemEx(0x40008140, 0x14 Bytes, Flags = 0x02000004)
T2ED0 9512:209.538   CPU_ReadMem(20 bytes @ 0x40008140)
T2ED0 9512:210.061   Data:  00 00 00 00 00 00 00 00 00 00 00 00 00 00 00 00 ...
T2ED0 9512:210.082 - 0.560ms returns 20 (0x14)
T2ED0 9512:210.117 JLINK_ReadMemEx(0x40008154, 0x4 Bytes, Flags = 0x02000004)
T2ED0 9512:210.145   CPU_ReadMem(4 bytes @ 0x40008154)
T2ED0 9512:210.488   Data:  00 00 00 00
T2ED0 9512:210.506 - 0.388ms returns 4 (0x4)
T2ED0 9512:210.521 JLINK_ReadMemEx(0x40008200, 0x4 Bytes, Flags = 0x02000004)
T2ED0 9512:210.533   CPU_ReadMem(4 bytes @ 0x40008200)
T2ED0 9512:210.961   Data:  00 00 00 00
T2ED0 9512:210.998 - 0.476ms returns 4 (0x4)
T2ED0 9512:211.029 JLINK_ReadMemEx(0x40008304, 0x4 Bytes, Flags = 0x02000004)
T2ED0 9512:211.042   CPU_ReadMem(4 bytes @ 0x40008304)
T2ED0 9512:211.483   Data:  00 00 00 00
T2ED0 9512:211.501 - 0.471ms returns 4 (0x4)
T2ED0 9512:211.515 JLINK_ReadMemEx(0x40008308, 0x4 Bytes, Flags = 0x02000004)
T2ED0 9512:211.527   CPU_ReadMem(4 bytes @ 0x40008308)
T2ED0 9512:211.877   Data:  00 00 00 00
T2ED0 9512:211.895 - 0.379ms returns 4 (0x4)
T2ED0 9512:211.909 JLINK_ReadMemEx(0x40008504, 0x4 Bytes, Flags = 0x02000004)
T2ED0 9512:211.921   CPU_ReadMem(4 bytes @ 0x40008504)
T2ED0 9512:212.303   Data:  00 00 00 00
T2ED0 9512:212.320 - 0.411ms returns 4 (0x4)
T2ED0 9512:212.335 JLINK_ReadMemEx(0x40008508, 0x4 Bytes, Flags = 0x02000004)
T2ED0 9512:212.347   CPU_ReadMem(4 bytes @ 0x40008508)
T2ED0 9512:212.731   Data:  00 00 00 00
T2ED0 9512:212.749 - 0.414ms returns 4 (0x4)
T2ED0 9512:212.763 JLINK_ReadMemEx(0x40008510, 0x4 Bytes, Flags = 0x02000004)
T2ED0 9512:212.775   CPU_ReadMem(4 bytes @ 0x40008510)
T2ED0 9512:213.181   Data:  04 00 00 00
T2ED0 9512:213.201 - 0.437ms returns 4 (0x4)
T2ED0 9512:213.229 JLINK_ReadMemEx(0x40008540, 0x14 Bytes, Flags = 0x02000004)
T2ED0 9512:213.255   CPU_ReadMem(20 bytes @ 0x40008540)
T2ED0 9512:213.737   Data:  00 00 00 00 00 00 00 00 00 00 00 00 00 00 00 00 ...
T2ED0 9512:213.755 - 0.525ms returns 20 (0x14)
T2ED0 9512:213.769 JLINK_ReadMemEx(0x40008554, 0x4 Bytes, Flags = 0x02000004)
T2ED0 9512:213.781   CPU_ReadMem(4 bytes @ 0x40008554)
T2ED0 9512:214.174   Data:  00 00 00 00
T2ED0 9512:214.192 - 0.422ms returns 4 (0x4)
T2ED0 9512:214.529 JLINK_ReadMemEx(0x50000504, 0x20 Bytes, Flags = 0x02000004)
T2ED0 9512:214.544   CPU_ReadMem(32 bytes @ 0x50000504)
T2ED0 9512:215.142   Data:  00 00 00 00 00 00 00 00 00 00 00 00 00 00 04 00 ...
T2ED0 9512:215.173 - 0.643ms returns 32 (0x20)
T2ED0 9512:215.188 JLINK_ReadMemEx(0x50000524, 0x4 Bytes, Flags = 0x02000004)
T2ED0 9512:215.201   CPU_ReadMem(4 bytes @ 0x50000524)
T2ED0 9512:215.586   Data:  00 00 00 00
T2ED0 9512:215.604 - 0.416ms returns 4 (0x4)
T2ED0 9512:215.664 JLINK_ReadMemEx(0x50000700, 0x7C Bytes, Flags = 0x02000004)
T2ED0 9512:215.680   CPU_ReadMem(124 bytes @ 0x50000700)
T2ED0 9512:216.976   Data:  02 00 00 00 02 00 00 00 02 00 00 00 02 00 00 00 ...
T2ED0 9512:216.994 - 1.329ms returns 124 (0x7C)
T2ED0 9512:217.009 JLINK_ReadMemEx(0x5000077C, 0x4 Bytes, Flags = 0x02000004)
T2ED0 9512:217.021   CPU_ReadMem(4 bytes @ 0x5000077C)
T2ED0 9512:217.479   Data:  02 00 00 00
T2ED0 9512:217.497 - 0.488ms returns 4 (0x4)
T2ED0 9512:221.305 JLINK_ReadMemEx(0x0000061C, 0x3C Bytes, Flags = 0x02000000)
T2ED0 9512:221.342   CPU_ReadMem(128 bytes @ 0x00000600)
T2ED0 9512:222.663    -- Updating C cache (128 bytes @ 0x00000600)
T2ED0 9512:222.679    -- Read from C cache (60 bytes @ 0x0000061C)
T2ED0 9512:222.692   Data:  00 F0 56 F8 60 1C FF F7 C3 FF 64 1C 04 2C F4 D3 ...
T2ED0 9512:222.703 - 1.398ms returns 60 (0x3C)
T2ED0 9512:222.721 JLINK_ReadMemEx(0x00000658, 0x3C Bytes, Flags = 0x02000000)
T2ED0 9512:222.731   CPU_ReadMem(64 bytes @ 0x00000680)
T2ED0 9512:223.529    -- Updating C cache (64 bytes @ 0x00000680)
T2ED0 9512:223.545    -- Read from C cache (60 bytes @ 0x00000658)
T2ED0 9512:223.557   Data:  A5 42 02 D2 60 1B 00 F0 03 F8 FF F7 E7 FF 70 BD ...
T2ED0 9512:223.568 - 0.846ms returns 60 (0x3C)
T2ED0 9512:223.584 JLINK_ReadMemEx(0x00000694, 0x3C Bytes, Flags = 0x02000000)
T2ED0 9512:223.594   CPU_ReadMem(64 bytes @ 0x000006C0)
T2ED0 9512:224.377    -- Updating C cache (64 bytes @ 0x000006C0)
T2ED0 9512:224.392    -- Read from C cache (60 bytes @ 0x00000694)
T2ED0 9512:224.404   Data:  1B 1F 1A 60 70 47 00 00 0C 05 00 50 01 21 02 48 ...
T2ED0 9512:224.415 - 0.831ms returns 60 (0x3C)
T2ED0 9512:224.452 JLINK_ReadMemEx(0x000006D0, 0x3C Bytes, Flags = 0x02000000)
T2ED0 9512:224.476   CPU_ReadMem(64 bytes @ 0x00000700)
T2ED0 9512:225.303    -- Updating C cache (64 bytes @ 0x00000700)
T2ED0 9512:225.318    -- Read from C cache (60 bytes @ 0x000006D0)
T2ED0 9512:225.330   Data:  03 FA 00 F2 29 B9 07 4B 1B 68 93 43 05 4C 23 60 ...
T2ED0 9512:225.341 - 0.888ms returns 60 (0x3C)
T2ED0 9512:225.360 JLINK_ReadMemEx(0x0000070C, 0x3C Bytes, Flags = 0x02000000)
T2ED0 9512:225.384   CPU_ReadMem(64 bytes @ 0x00000740)
T2ED0 9512:226.228    -- Updating C cache (64 bytes @ 0x00000740)
T2ED0 9512:226.243    -- Read from C cache (60 bytes @ 0x0000070C)
T2ED0 9512:226.255   Data:  10 46 19 46 30 BD 00 00 00 00 00 20 40 85 00 40 ...
T2ED0 9512:226.281 - 0.921ms returns 60 (0x3C)
T084C 9515:126.471 JLINK_ReadMemEx(0x0000071C, 0x2 Bytes, Flags = 0x02000000)
T084C 9515:126.514    -- Read from C cache (2 bytes @ 0x0000071C)
T084C 9515:126.575   Data:  10 B5
T084C 9515:126.595 - 0.124ms returns 2 (0x2)
T084C 9515:126.615 JLINK_HasError()
T084C 9515:126.636 JLINK_SetBPEx(Addr = 0x0000058A, Type = 0xFFFFFFF2)
T084C 9515:126.654 - 0.019ms returns 0x00000003
T084C 9515:126.671 JLINK_HasError()
T084C 9515:126.688 JLINK_HasError()
T084C 9515:126.705 JLINK_Go()
T084C 9515:127.144   CPU_WriteMem(4 bytes @ 0xE0002000)
T084C 9515:127.601   CPU_ReadMem(4 bytes @ 0xE0001000)
T084C 9515:128.059   CPU_WriteMem(4 bytes @ 0xE0002008)
T084C 9515:128.093   CPU_WriteMem(4 bytes @ 0xE000200C)
T084C 9515:129.308 - 2.602ms
T084C 9515:229.737 JLINK_HasError()
T084C 9515:229.821 JLINK_IsHalted()
T084C 9515:233.905 - 4.081ms returns TRUE
T084C 9515:233.990 JLINK_HasError()
T084C 9515:234.031 JLINK_Halt()
T084C 9515:234.062 - 0.029ms returns 0x00
T084C 9515:234.100 JLINK_IsHalted()
T084C 9515:234.129 - 0.028ms returns TRUE
T084C 9515:234.166 JLINK_IsHalted()
T084C 9515:234.195 - 0.028ms returns TRUE
T084C 9515:234.232 JLINK_IsHalted()
T084C 9515:234.260 - 0.028ms returns TRUE
T084C 9515:234.298 JLINK_HasError()
T084C 9515:234.337 JLINK_ReadReg(R15 (PC))
T084C 9515:234.373 - 0.035ms returns 0x0000058A
T084C 9515:234.411 JLINK_ReadReg(XPSR)
T084C 9515:234.442 - 0.029ms returns 0x21000000
T084C 9515:234.489 JLINK_HasError()
T084C 9515:234.528 JLINK_ClrBPEx(BPHandle = 0x00000003)
T084C 9515:234.559 - 0.031ms returns 0x00
T084C 9515:234.597 JLINK_HasError()
T084C 9515:234.651 JLINK_HasError()
T084C 9515:234.690 JLINK_ReadMemU32(0xE000ED30, 0x1 Items)
T084C 9515:234.735   CPU_ReadMem(4 bytes @ 0xE000ED30)
T084C 9515:235.391   Data:  02 00 00 00
T084C 9515:235.457 - 0.766ms returns 1 (0x1)
T084C 9515:235.506 JLINK_ReadMemU32(0xE0001028, 0x1 Items)
T084C 9515:235.550   CPU_ReadMem(4 bytes @ 0xE0001028)
T084C 9515:236.133   Data:  00 00 00 00
T084C 9515:236.198   Debug reg: DWT_FUNC[0]
T084C 9515:236.242 - 0.736ms returns 1 (0x1)
T084C 9515:236.290 JLINK_ReadMemU32(0xE0001038, 0x1 Items)
T084C 9515:236.346   CPU_ReadMem(4 bytes @ 0xE0001038)
T084C 9515:236.926   Data:  00 02 00 00
T084C 9515:236.992   Debug reg: DWT_FUNC[1]
T084C 9515:237.036 - 0.745ms returns 1 (0x1)
T084C 9515:237.084 JLINK_ReadMemU32(0xE0001048, 0x1 Items)
T084C 9515:237.128   CPU_ReadMem(4 bytes @ 0xE0001048)
T084C 9515:237.719   Data:  00 00 00 00
T084C 9515:237.785   Debug reg: DWT_FUNC[2]
T084C 9515:237.828 - 0.744ms returns 1 (0x1)
T084C 9515:237.877 JLINK_ReadMemU32(0xE0001058, 0x1 Items)
T084C 9515:237.921   CPU_ReadMem(4 bytes @ 0xE0001058)
T084C 9515:238.500   Data:  00 00 00 00
T084C 9515:238.565   Debug reg: DWT_FUNC[3]
T084C 9515:238.608 - 0.731ms returns 1 (0x1)
T084C 9515:238.802 JLINK_HasError()
T084C 9515:238.847 JLINK_ReadReg(R0)
T084C 9515:238.883 - 0.035ms returns 0x00000002
T084C 9515:238.922 JLINK_ReadReg(R1)
T084C 9515:238.952 - 0.030ms returns 0x00000000
T084C 9515:238.990 JLINK_ReadReg(R2)
T084C 9515:239.020 - 0.029ms returns 0x00002000
T084C 9515:239.057 JLINK_ReadReg(R3)
T084C 9515:239.087 - 0.029ms returns 0x5000050C
T084C 9515:239.124 JLINK_ReadReg(R4)
T084C 9515:239.154 - 0.029ms returns 0x00000004
T084C 9515:239.191 JLINK_ReadReg(R5)
T084C 9515:239.221 - 0.028ms returns 0x000009A4
T084C 9515:239.258 JLINK_ReadReg(R6)
T084C 9515:239.287 - 0.028ms returns 0x00000000
T084C 9515:239.324 JLINK_ReadReg(R7)
T084C 9515:239.354 - 0.028ms returns 0x00000000
T084C 9515:239.391 JLINK_ReadReg(R8)
T084C 9515:239.428 - 0.036ms returns 0x00000000
T084C 9515:239.465 JLINK_ReadReg(R9)
T084C 9515:239.495 - 0.029ms returns 0x00000000
T084C 9515:239.533 JLINK_ReadReg(R10)
T084C 9515:239.562 - 0.029ms returns 0x00000000
T084C 9515:239.600 JLINK_ReadReg(R11)
T084C 9515:239.629 - 0.029ms returns 0x00000000
T084C 9515:239.666 JLINK_ReadReg(R12)
T084C 9515:239.696 - 0.029ms returns 0x00000000
T084C 9515:239.733 JLINK_ReadReg(R13 (SP))
T084C 9515:239.764 - 0.030ms returns 0x20004008
T084C 9515:239.802 JLINK_ReadReg(R14)
T084C 9515:239.831 - 0.029ms returns 0x00000737
T084C 9515:239.869 JLINK_ReadReg(R15 (PC))
T084C 9515:239.898 - 0.029ms returns 0x0000058A
T084C 9515:239.936 JLINK_ReadReg(XPSR)
T084C 9515:239.966 - 0.029ms returns 0x21000000
T084C 9515:240.003 JLINK_ReadReg(MSP)
T084C 9515:240.033 - 0.028ms returns 0x20004008
T084C 9515:240.070 JLINK_ReadReg(PSP)
T084C 9515:240.100 - 0.028ms returns 0x00000000
T084C 9515:240.137 JLINK_ReadReg(CFBP)
T084C 9515:240.166 - 0.028ms returns 0x00000000
T084C 9515:240.204 JLINK_ReadReg(FPSCR)
T084C 9515:246.183 - 5.975ms returns 0x00000000
T084C 9515:246.268 JLINK_ReadReg(FPS0)
T084C 9515:246.307 - 0.038ms returns 0x00000000
T084C 9515:246.346 JLINK_ReadReg(FPS1)
T084C 9515:246.390 - 0.043ms returns 0x00000000
T084C 9515:246.428 JLINK_ReadReg(FPS2)
T084C 9515:246.458 - 0.029ms returns 0x00000000
T084C 9515:246.495 JLINK_ReadReg(FPS3)
T084C 9515:246.525 - 0.029ms returns 0x00000000
T084C 9515:246.563 JLINK_ReadReg(FPS4)
T084C 9515:246.592 - 0.029ms returns 0x00000000
T084C 9515:246.629 JLINK_ReadReg(FPS5)
T084C 9515:246.659 - 0.029ms returns 0x00000000
T084C 9515:246.696 JLINK_ReadReg(FPS6)
T084C 9515:246.726 - 0.028ms returns 0x00000000
T084C 9515:246.763 JLINK_ReadReg(FPS7)
T084C 9515:246.793 - 0.029ms returns 0x00000000
T084C 9515:246.830 JLINK_ReadReg(FPS8)
T084C 9515:246.861 - 0.029ms returns 0x00000000
T084C 9515:246.898 JLINK_ReadReg(FPS9)
T084C 9515:246.928 - 0.029ms returns 0x00000000
T084C 9515:246.965 JLINK_ReadReg(FPS10)
T084C 9515:246.994 - 0.028ms returns 0x00000000
T084C 9515:247.040 JLINK_ReadReg(FPS11)
T084C 9515:247.079 - 0.037ms returns 0x00000000
T084C 9515:247.116 JLINK_ReadReg(FPS12)
T084C 9515:247.146 - 0.029ms returns 0x00000000
T084C 9515:247.183 JLINK_ReadReg(FPS13)
T084C 9515:247.213 - 0.029ms returns 0x00000000
T084C 9515:247.250 JLINK_ReadReg(FPS14)
T084C 9515:247.279 - 0.028ms returns 0x00000000
T084C 9515:247.316 JLINK_ReadReg(FPS15)
T084C 9515:247.346 - 0.029ms returns 0x00000000
T084C 9515:247.476 JLINK_ReadReg(FPS16)
T084C 9515:247.569 - 0.091ms returns 0x00000000
T084C 9515:247.619 JLINK_ReadReg(FPS17)
T084C 9515:247.651 - 0.032ms returns 0x00000000
T084C 9515:247.690 JLINK_ReadReg(FPS18)
T084C 9515:247.721 - 0.030ms returns 0x00000000
T084C 9515:247.758 JLINK_ReadReg(FPS19)
T084C 9515:247.788 - 0.029ms returns 0x00000000
T084C 9515:247.826 JLINK_ReadReg(FPS20)
T084C 9515:247.856 - 0.029ms returns 0x00000000
T084C 9515:247.894 JLINK_ReadReg(FPS21)
T084C 9515:247.923 - 0.029ms returns 0x00000000
T084C 9515:247.961 JLINK_ReadReg(FPS22)
T084C 9515:247.991 - 0.029ms returns 0x00000000
T084C 9515:248.028 JLINK_ReadReg(FPS23)
T084C 9515:248.058 - 0.028ms returns 0x00000000
T084C 9515:248.095 JLINK_ReadReg(FPS24)
T084C 9515:248.124 - 0.029ms returns 0x00000000
T084C 9515:248.161 JLINK_ReadReg(FPS25)
T084C 9515:248.191 - 0.029ms returns 0x00000000
T084C 9515:248.229 JLINK_ReadReg(FPS26)
T084C 9515:248.259 - 0.029ms returns 0x00000000
T084C 9515:248.296 JLINK_ReadReg(FPS27)
T084C 9515:248.326 - 0.029ms returns 0x00000000
T084C 9515:248.363 JLINK_ReadReg(FPS28)
T084C 9515:248.393 - 0.029ms returns 0x00000000
T084C 9515:248.440 JLINK_ReadReg(FPS29)
T084C 9515:248.470 - 0.029ms returns 0x00000000
T084C 9515:248.507 JLINK_ReadReg(FPS30)
T084C 9515:248.537 - 0.029ms returns 0x00000000
T084C 9515:248.574 JLINK_ReadReg(FPS31)
T084C 9515:248.604 - 0.029ms returns 0x00000000
T2ED0 9515:268.285 JLINK_HasError()
T2ED0 9515:268.363 JLINK_ReadMemU32(0xE0001004, 0x1 Items)
T2ED0 9515:268.410   CPU_ReadMem(4 bytes @ 0xE0001004)
T2ED0 9515:268.870   Data:  18 67 00 00
T2ED0 9515:268.905   Debug reg: DWT_CYCCNT
T2ED0 9515:268.930 - 0.566ms returns 1 (0x1)
T2ED0 9515:269.154 JLINK_ReadMemEx(0x40008140, 0x14 Bytes, Flags = 0x02000004)
T2ED0 9515:269.173   CPU_ReadMem(20 bytes @ 0x40008140)
T2ED0 9515:269.672   Data:  00 00 00 00 00 00 00 00 00 00 00 00 00 00 00 00 ...
T2ED0 9515:269.691 - 0.536ms returns 20 (0x14)
T2ED0 9515:269.706 JLINK_ReadMemEx(0x40008154, 0x4 Bytes, Flags = 0x02000004)
T2ED0 9515:269.719   CPU_ReadMem(4 bytes @ 0x40008154)
T2ED0 9515:270.093   Data:  00 00 00 00
T2ED0 9515:270.110 - 0.403ms returns 4 (0x4)
T2ED0 9515:270.124 JLINK_ReadMemEx(0x40008200, 0x4 Bytes, Flags = 0x02000004)
T2ED0 9515:270.136   CPU_ReadMem(4 bytes @ 0x40008200)
T2ED0 9515:270.515   Data:  00 00 00 00
T2ED0 9515:270.532 - 0.408ms returns 4 (0x4)
T2ED0 9515:270.547 JLINK_ReadMemEx(0x40008304, 0x4 Bytes, Flags = 0x02000004)
T2ED0 9515:270.559   CPU_ReadMem(4 bytes @ 0x40008304)
T2ED0 9515:270.938   Data:  00 00 00 00
T2ED0 9515:270.956 - 0.409ms returns 4 (0x4)
T2ED0 9515:270.970 JLINK_ReadMemEx(0x40008308, 0x4 Bytes, Flags = 0x02000004)
T2ED0 9515:270.982   CPU_ReadMem(4 bytes @ 0x40008308)
T2ED0 9515:271.364   Data:  00 00 00 00
T2ED0 9515:271.382 - 0.411ms returns 4 (0x4)
T2ED0 9515:271.396 JLINK_ReadMemEx(0x40008504, 0x4 Bytes, Flags = 0x02000004)
T2ED0 9515:271.407   CPU_ReadMem(4 bytes @ 0x40008504)
T2ED0 9515:271.789   Data:  00 00 00 00
T2ED0 9515:271.806 - 0.410ms returns 4 (0x4)
T2ED0 9515:271.820 JLINK_ReadMemEx(0x40008508, 0x4 Bytes, Flags = 0x02000004)
T2ED0 9515:271.832   CPU_ReadMem(4 bytes @ 0x40008508)
T2ED0 9515:272.266   Data:  00 00 00 00
T2ED0 9515:272.283 - 0.462ms returns 4 (0x4)
T2ED0 9515:272.299 JLINK_ReadMemEx(0x40008510, 0x4 Bytes, Flags = 0x02000004)
T2ED0 9515:272.311   CPU_ReadMem(4 bytes @ 0x40008510)
T2ED0 9515:272.724   Data:  04 00 00 00
T2ED0 9515:272.742 - 0.442ms returns 4 (0x4)
T2ED0 9515:272.756 JLINK_ReadMemEx(0x40008540, 0x14 Bytes, Flags = 0x02000004)
T2ED0 9515:272.773   CPU_ReadMem(20 bytes @ 0x40008540)
T2ED0 9515:273.292   Data:  00 00 00 00 00 00 00 00 00 00 00 00 00 00 00 00 ...
T2ED0 9515:273.338 - 0.581ms returns 20 (0x14)
T2ED0 9515:273.366 JLINK_ReadMemEx(0x40008554, 0x4 Bytes, Flags = 0x02000004)
T2ED0 9515:273.392   CPU_ReadMem(4 bytes @ 0x40008554)
T2ED0 9515:273.781   Data:  00 00 00 00
T2ED0 9515:273.799 - 0.432ms returns 4 (0x4)
T2ED0 9515:274.135 JLINK_ReadMemEx(0x50000504, 0x20 Bytes, Flags = 0x02000004)
T2ED0 9515:274.150   CPU_ReadMem(32 bytes @ 0x50000504)
T2ED0 9515:274.752   Data:  00 C0 01 00 00 C0 01 00 00 C0 01 00 00 40 04 00 ...
T2ED0 9515:274.769 - 0.634ms returns 32 (0x20)
T2ED0 9515:274.784 JLINK_ReadMemEx(0x50000524, 0x4 Bytes, Flags = 0x02000004)
T2ED0 9515:274.796   CPU_ReadMem(4 bytes @ 0x50000524)
T2ED0 9515:275.179   Data:  00 00 00 00
T2ED0 9515:275.197 - 0.412ms returns 4 (0x4)
T2ED0 9515:275.211 JLINK_ReadMemEx(0x50000700, 0x7C Bytes, Flags = 0x02000004)
T2ED0 9515:275.223   CPU_ReadMem(124 bytes @ 0x50000700)
T2ED0 9515:276.549   Data:  02 00 00 00 02 00 00 00 02 00 00 00 02 00 00 00 ...
T2ED0 9515:276.596 - 1.384ms returns 124 (0x7C)
T2ED0 9515:276.613 JLINK_ReadMemEx(0x5000077C, 0x4 Bytes, Flags = 0x02000004)
T2ED0 9515:276.627   CPU_ReadMem(4 bytes @ 0x5000077C)
T2ED0 9515:277.138   Data:  02 00 00 00
T2ED0 9515:277.177 - 0.564ms returns 4 (0x4)
T2ED0 9515:285.905 JLINK_ReadMemEx(0x0000048A, 0x2 Bytes, Flags = 0x02000000)
T2ED0 9515:285.944   CPU_ReadMem(64 bytes @ 0x00000480)
T2ED0 9515:286.818    -- Updating C cache (64 bytes @ 0x00000480)
T2ED0 9515:286.834    -- Read from C cache (2 bytes @ 0x0000048A)
T2ED0 9515:286.846   Data:  68 FA
T2ED0 9515:286.857 - 0.952ms returns 2 (0x2)
T2ED0 9515:286.870 JLINK_ReadMemEx(0x0000048C, 0x3C Bytes, Flags = 0x02000000)
T2ED0 9515:286.880   CPU_ReadMem(64 bytes @ 0x000004C0)
T2ED0 9515:287.701    -- Updating C cache (64 bytes @ 0x000004C0)
T2ED0 9515:287.745    -- Read from C cache (60 bytes @ 0x0000048C)
T2ED0 9515:287.757   Data:  12 20 25 49 08 39 08 60 00 F0 6C FA 12 21 4F F0 ...
T2ED0 9515:287.783 - 0.912ms returns 60 (0x3C)
T2ED0 9515:287.816 JLINK_ReadMemEx(0x000004C8, 0x3C Bytes, Flags = 0x02000000)
T2ED0 9515:287.839   CPU_ReadMem(64 bytes @ 0x00000500)
T2ED0 9515:288.719    -- Updating C cache (64 bytes @ 0x00000500)
T2ED0 9515:288.748    -- Read from C cache (60 bytes @ 0x000004C8)
T2ED0 9515:288.773   Data:  E0 60 17 49 08 43 00 1D 13 49 7C 39 08 60 00 BF ...
T2ED0 9515:288.784 - 0.967ms returns 60 (0x3C)
T2ED0 9515:288.800 JLINK_ReadMemEx(0x0000052C, 0x3C Bytes, Flags = 0x02000000)
T2ED0 9515:288.810   CPU_ReadMem(64 bytes @ 0x00000540)
T2ED0 9515:289.633    -- Updating C cache (64 bytes @ 0x00000540)
T2ED0 9515:289.649    -- Read from C cache (60 bytes @ 0x0000052C)
T2ED0 9515:289.661   Data:  05 48 00 68 38 B1 05 48 00 68 40 1C 03 49 08 60 ...
T2ED0 9515:289.673 - 0.872ms returns 60 (0x3C)
T2ED0 9515:289.690 JLINK_ReadMemEx(0x0000056C, 0x3C Bytes, Flags = 0x02000000)
T2ED0 9515:289.700   CPU_ReadMem(64 bytes @ 0x00000580)
T2ED0 9515:290.511    -- Updating C cache (64 bytes @ 0x00000580)
T2ED0 9515:290.526    -- Read from C cache (60 bytes @ 0x0000056C)
T2ED0 9515:290.538   Data:  02 E0 08 C8 12 1F 08 C1 00 2A FA D1 70 47 70 47 ...
T2ED0 9515:290.550 - 0.860ms returns 60 (0x3C)
T084C 9519:020.574 JLINK_ReadMemEx(0x0000058A, 0x2 Bytes, Flags = 0x02000000)
T084C 9519:020.616    -- Read from C cache (2 bytes @ 0x0000058A)
T084C 9519:020.629   Data:  05 46
T084C 9519:020.641 - 0.067ms returns 2 (0x2)
T084C 9519:020.653 JLINK_HasError()
T084C 9519:020.671 JLINK_Step()
T084C 9519:021.153    -- Read from C cache (2 bytes @ 0x0000058A)
T084C 9519:021.176   CPU_ReadMem(4 bytes @ 0xE000ED18)
T084C 9519:021.672   CPU_WriteMem(4 bytes @ 0xE000ED18)
T084C 9519:022.104   CPU_ReadMem(4 bytes @ 0xE000ED18)
T084C 9519:022.498   CPU_WriteMem(4 bytes @ 0xE000ED18)
T084C 9519:022.891   -- Simulated
T084C 9519:022.909 - 2.237ms returns 0
T084C 9519:022.940 JLINK_HasError()
T084C 9519:022.968 JLINK_ReadReg(R15 (PC))
T084C 9519:022.978 - 0.010ms returns 0x0000058C
T084C 9519:023.013 JLINK_ReadReg(XPSR)
T084C 9519:023.022 - 0.009ms returns 0x21000000
T084C 9519:023.115 JLINK_HasError()
T084C 9519:023.127 JLINK_ReadReg(R0)
T084C 9519:023.136 - 0.008ms returns 0x00000002
T084C 9519:023.160 JLINK_ReadReg(R1)
T084C 9519:023.169 - 0.008ms returns 0x00000000
T084C 9519:023.179 JLINK_ReadReg(R2)
T084C 9519:023.187 - 0.008ms returns 0x00002000
T084C 9519:023.198 JLINK_ReadReg(R3)
T084C 9519:023.206 - 0.007ms returns 0x5000050C
T084C 9519:023.216 JLINK_ReadReg(R4)
T084C 9519:023.224 - 0.008ms returns 0x00000004
T084C 9519:023.234 JLINK_ReadReg(R5)
T084C 9519:023.242 - 0.008ms returns 0x00000002
T084C 9519:023.253 JLINK_ReadReg(R6)
T084C 9519:023.261 - 0.008ms returns 0x00000000
T084C 9519:023.271 JLINK_ReadReg(R7)
T084C 9519:023.280 - 0.007ms returns 0x00000000
T084C 9519:023.290 JLINK_ReadReg(R8)
T084C 9519:023.298 - 0.008ms returns 0x00000000
T084C 9519:023.308 JLINK_ReadReg(R9)
T084C 9519:023.316 - 0.008ms returns 0x00000000
T084C 9519:023.327 JLINK_ReadReg(R10)
T084C 9519:023.335 - 0.007ms returns 0x00000000
T084C 9519:023.345 JLINK_ReadReg(R11)
T084C 9519:023.353 - 0.008ms returns 0x00000000
T084C 9519:023.363 JLINK_ReadReg(R12)
T084C 9519:023.372 - 0.008ms returns 0x00000000
T084C 9519:023.382 JLINK_ReadReg(R13 (SP))
T084C 9519:023.390 - 0.008ms returns 0x20004008
T084C 9519:023.401 JLINK_ReadReg(R14)
T084C 9519:023.409 - 0.008ms returns 0x00000737
T084C 9519:023.419 JLINK_ReadReg(R15 (PC))
T084C 9519:023.427 - 0.008ms returns 0x0000058C
T084C 9519:023.438 JLINK_ReadReg(XPSR)
T084C 9519:023.446 - 0.008ms returns 0x21000000
T084C 9519:023.456 JLINK_ReadReg(MSP)
T084C 9519:023.464 - 0.008ms returns 0x20004008
T084C 9519:023.475 JLINK_ReadReg(PSP)
T084C 9519:023.483 - 0.007ms returns 0x00000000
